!Created: 1/2/2014 at 2:07:04 PM
!Mini-Circuits  
!S2P DATA File Format
!Type: MMIC Amplifier
!Model: CMA-5043+
!S/N: Unit 1 
!RUN# Q13020, D/C 1336 MOUNTED ON TB-757+
!PIN OUT: PORT 1 - PIN 2, PORT 2 - PIN 7, GROUND - ALL OTHERS
!TEST CONDITIONS: Temp= 25 (Deg C) RF Power= -25.00 (dBm) V limit=3(V) I limit=250(mA) Z=50 OHM 
!Tested with Network Analyzer: !Agilent AG N5242A, S/N 71404, CAL DUE DATE: 5/31/14
!
# Hz  S  dB  R  50
!Frequency    S11 dB        S11 Deg       S21 dB        S21 Deg       S12 dB        S12 Deg       S22 dB        S22 Deg       
10000000      -1.2463630    -21.1427400   26.3399700    166.8034000   -34.0686600   81.0922100    -8.0968110    34.9833500    
15000000      -2.2197080    -27.4934300   25.8325600    164.2316000   -31.7255300   63.5021700    -9.0182650    4.1058110     
20000000      -3.1295960    -31.9639700   25.4535200    164.6079000   -30.4423800   50.6130900    -10.0490100   -10.5474500   
25000000      -4.0588600    -34.7474600   25.1380900    164.8171000   -29.6830100   41.8025300    -11.1393900   -19.9008300   
30000000      -4.7839530    -35.9414300   24.8385500    165.0748000   -29.2710900   35.6116900    -11.9318900   -25.3573300   
35000000      -5.3248510    -36.5305500   24.6281000    165.4547000   -28.9805700   30.8279800    -12.6501300   -28.9807900   
40000000      -5.8386400    -37.2785400   24.4734600    165.7488000   -28.7720200   26.8655800    -13.3432000   -31.4611100   
45000000      -6.2743010    -37.6140600   24.3728500    165.9205000   -28.6095500   23.6658800    -13.9886000   -33.7430000   
50000000      -7.2094760    -32.3072500   24.2853300    165.1199000   -28.6786700   19.2156400    -15.5703700   -33.7383000   
55000000      -6.8786330    -37.9957300   24.1684900    166.2655000   -28.4147600   18.4504800    -14.8786700   -35.7134200   
60000000      -6.8116960    -38.4325000   24.1553600    166.4816000   -28.2069300   15.7929800    -15.1499200   -39.3503000   
65000000      -7.2926420    -38.7576800   24.0620000    166.1798000   -28.2919000   14.8994000    -15.5505400   -37.3357100   
70000000      -7.4829280    -39.2601400   24.0212300    166.0595000   -28.2438000   13.3565700    -15.8409600   -38.1412000   
75000000      -7.5767970    -39.7100000   23.9859100    165.9126000   -28.2018400   11.9647200    -16.0464600   -38.7164300   
80000000      -7.7330060    -40.3929100   23.9412800    165.6771000   -28.1616000   10.7346800    -16.2847600   -38.8287700   
85000000      -7.8031160    -40.7945400   23.9170400    165.4423000   -28.1437600   9.6110120     -16.4714900   -39.4296200   
90000000      -7.8701750    -41.7675000   23.8908300    165.1904000   -28.1335100   8.5371900     -16.6141700   -40.1984900   
95000000      -7.9727540    -42.1619000   23.8596900    164.8641000   -28.0969900   7.6863380     -16.7818300   -40.2275700   
100000000     -8.0150490    -42.9778900   23.8427500    164.5615000   -28.0775600   6.8781280     -16.9216100   -40.9482000   
105000000     -8.0901640    -43.8093500   23.8155100    164.2561000   -28.0528000   6.0143360     -16.9861300   -41.4205600   
110000000     -8.1505500    -44.5067800   23.7961300    163.8855000   -28.0561200   5.2469070     -17.1481500   -42.0200200   
115000000     -8.1875010    -45.6099100   23.7770800    163.5366000   -28.0295800   4.5329120     -17.1980400   -42.7599700   
120000000     -8.2183150    -46.4957400   23.7526900    163.1655000   -28.0062700   3.8572240     -17.2755000   -42.9173000   
125000000     -8.2481210    -47.3852300   23.7316200    162.8264000   -27.9933300   3.1961300     -17.3313200   -43.8268500   
130000000     -8.2474280    -48.4814200   23.7137900    162.3805000   -27.9738900   2.6275510     -17.4165500   -44.0829800   
135000000     -8.3103820    -49.2132100   23.6985800    161.9829000   -27.9691800   1.9654730     -17.5120300   -45.0091600   
140000000     -8.3264630    -50.1407400   23.6722700    161.5886000   -27.9560900   1.4238920     -17.5308600   -45.3893700   
145000000     -8.3539780    -51.2667300   23.6561200    161.1886000   -27.9411600   0.9015712     -17.5871000   -46.2581100   
150000000     -8.3795430    -52.2153900   23.6371700    160.6974000   -27.9473300   0.5574552     -17.6740600   -46.0895800   
155000000     -8.3952650    -53.1764600   23.6236300    160.3034000   -27.9195200   -0.1753118    -17.6836500   -47.4789700   
160000000     -8.4098060    -54.3361500   23.6025800    159.9061000   -27.9084100   -0.6180366    -17.7033600   -48.1415100   
165000000     -8.4210000    -55.3326100   23.5838500    159.4479000   -27.8957100   -1.1022360    -17.7267700   -48.8651200   
170000000     -8.4411330    -56.3615700   23.5627700    159.0074000   -27.8852200   -1.5540930    -17.7679800   -49.3979200   
175000000     -8.4404010    -57.5704700   23.5440500    158.5924000   -27.8718800   -2.0446360    -17.7910500   -50.4396300   
180000000     -8.4466280    -58.6276100   23.5215500    158.1554000   -27.8515500   -2.5421200    -17.8124300   -51.3279400   
185000000     -8.4551100    -59.6865900   23.4950400    157.7024000   -27.8350800   -2.9325720    -17.8456600   -51.8849800   
190000000     -8.4787730    -60.9112100   23.4815300    157.2649000   -27.8342900   -3.4686780    -17.8699600   -52.9106800   
195000000     -8.4715470    -61.9166100   23.4550200    156.8161000   -27.8095600   -3.8247060    -17.8880100   -53.6464300   
200000000     -8.4759810    -63.1164400   23.4293000    156.3795000   -27.7970800   -4.2968370    -17.8678800   -54.3847800   
205000000     -8.4996910    -64.0569500   23.4106400    155.9297000   -27.7823400   -4.6688150    -17.9335500   -55.1916200   
210000000     -8.4990840    -65.3625000   23.3767900    155.4821000   -27.7538600   -5.1444900    -18.0132200   -56.3031600   
215000000     -8.4948840    -66.3897500   23.3498500    155.0565000   -27.7441500   -5.5220850    -17.9992200   -56.9171200   
220000000     -8.4990610    -67.5732600   23.3266800    154.6179000   -27.7221800   -5.9110880    -17.9947400   -57.8344300   
225000000     -8.4986530    -68.7344500   23.3051400    154.1762000   -27.7118500   -6.3083830    -17.9938800   -58.7578300   
230000000     -8.5152980    -69.8547100   23.2823000    153.7105000   -27.6977500   -6.6622600    -18.0354600   -59.6872200   
235000000     -8.5091090    -70.9188200   23.2571900    153.2908000   -27.6843800   -7.1057830    -18.0183900   -60.4947800   
240000000     -8.5044200    -72.1162800   23.2338600    152.8867000   -27.6608800   -7.5224620    -18.0335700   -61.3969900   
245000000     -8.5044530    -73.2480900   23.2110400    152.4005000   -27.6511300   -7.8389410    -18.0732000   -62.3325000   
250000000     -8.5175000    -74.5983800   23.1842900    151.9223000   -27.6369700   -8.3614460    -18.1936300   -63.1187800   
255000000     -8.5004800    -75.5251600   23.1744500    151.5043000   -27.6141200   -8.5846360    -18.0110000   -64.4056500   
260000000     -8.5121660    -76.5564100   23.1445700    151.1097000   -27.6091400   -8.9970430    -18.0058500   -65.2708300   
265000000     -8.5220010    -77.6595100   23.1169000    150.6222000   -27.5848000   -9.3627350    -18.0260900   -66.1352000   
270000000     -8.4876030    -78.8748000   23.0920000    150.2189000   -27.5622400   -9.6931430    -17.9851300   -67.0435600   
275000000     -8.5204540    -80.0159100   23.0696300    149.7693000   -27.5529900   -10.0514500   -18.0219000   -67.8490000   
280000000     -8.4938450    -81.1174300   23.0392800    149.3396000   -27.5301300   -10.4162500   -18.0397700   -68.8652300   
285000000     -8.5155570    -82.2571000   23.0081300    148.8645000   -27.5199300   -10.8402500   -18.0739000   -69.2006100   
290000000     -8.5221670    -83.1673500   22.9802800    148.4439000   -27.5053100   -11.2167100   -18.0488400   -70.1692100   
295000000     -8.5137740    -84.3767900   22.9508500    148.0138000   -27.4860400   -11.5406600   -18.0510200   -71.0236300   
300000000     -8.4694000    -85.4980600   22.9304300    147.6201000   -27.4704500   -11.8972900   -17.9947600   -72.5931800   
305000000     -8.5180700    -86.8764700   22.9023800    147.1443000   -27.4452100   -12.2946500   -18.0870500   -73.4817100   
310000000     -8.4970610    -87.8701300   22.8704100    146.7275000   -27.4271900   -12.6413100   -18.0672000   -74.1441100   
315000000     -8.4923170    -88.9115400   22.8387000    146.2933000   -27.4132000   -13.0085200   -18.0841000   -75.0297000   
320000000     -8.4798130    -90.0914100   22.8123600    145.8990000   -27.3844700   -13.4028400   -18.0250300   -76.2374400   
325000000     -8.4879830    -91.1895400   22.7880200    145.4748000   -27.3668000   -13.8087200   -18.0907600   -77.1851000   
330000000     -8.4830560    -92.1771700   22.7561200    145.0477000   -27.3507900   -14.1192600   -18.0669800   -77.8912300   
335000000     -8.4769120    -93.3558000   22.7276500    144.6137000   -27.3312400   -14.4701100   -18.0863800   -78.9800600   
340000000     -8.4824850    -94.5541100   22.6997500    144.1781000   -27.3108900   -14.8971800   -18.1102200   -79.8716000   
345000000     -8.4779420    -95.5447800   22.6684200    143.7826000   -27.2891500   -15.2261000   -18.0713400   -80.7104900   
350000000     -8.5090970    -96.6766600   22.6358200    143.4003000   -27.2721300   -15.6341400   -18.0664500   -81.4183000   
355000000     -8.4771310    -97.7027600   22.6078700    142.9293000   -27.2511200   -15.9736900   -18.1279500   -82.5440100   
360000000     -8.4579280    -98.8566600   22.5792400    142.5389000   -27.2325500   -16.3313500   -18.0883000   -83.5582000   
365000000     -8.4543640    -99.9499700   22.5517800    142.1473000   -27.2127000   -16.7187100   -18.1092300   -84.6605800   
370000000     -8.4608960    -101.0094000  22.5163200    141.7231000   -27.1968400   -17.0761700   -18.1134000   -85.2366900   
375000000     -8.4699750    -102.0140000  22.4824600    141.3362000   -27.1737100   -17.4256200   -18.1024200   -86.1683300   
380000000     -8.4834230    -103.0495000  22.4519100    140.9153000   -27.1476000   -17.7897200   -18.1244700   -87.0393800   
385000000     -8.4736830    -104.2078000  22.4223300    140.5170000   -27.1373700   -18.1845400   -18.1322300   -87.8740900   
390000000     -8.4724470    -105.3039000  22.3893100    140.1097000   -27.1131400   -18.5323800   -18.1300200   -88.7969600   
395000000     -8.4628170    -106.4559000  22.3658900    139.7378000   -27.0861400   -18.8615200   -18.1082200   -89.8942900   
400000000     -8.4434470    -107.4048000  22.3223500    139.3281000   -27.0508800   -19.3097500   -18.1656500   -90.7444500   
405000000     -8.4723170    -108.6833000  22.2910500    138.9545000   -27.0339300   -19.7145700   -18.1614100   -91.8874200   
410000000     -8.4429270    -109.5612000  22.2562800    138.5712000   -27.0189200   -20.0628900   -18.1549700   -92.6959800   
415000000     -8.4586120    -110.6904000  22.2263200    138.1563000   -26.9958100   -20.4362300   -18.1767200   -93.7001800   
420000000     -8.4585790    -111.5876000  22.1898200    137.7687000   -26.9784000   -20.8200000   -18.1594900   -94.5988200   
425000000     -8.4422220    -112.8249000  22.1579200    137.3848000   -26.9552700   -21.1883100   -18.1823500   -95.5444300   
430000000     -8.4449550    -113.7789000  22.1258900    136.9939000   -26.9334400   -21.5650500   -18.1788100   -96.6190300   
435000000     -8.4333720    -114.8140000  22.0972800    136.5959000   -26.9110700   -21.9380400   -18.1830100   -97.4942300   
440000000     -8.4403540    -115.8662000  22.0632200    136.2394000   -26.8867600   -22.3096500   -18.1653100   -98.5278000   
445000000     -8.4242020    -116.9118000  22.0324700    135.8822000   -26.8708300   -22.6365900   -18.1678400   -99.3310500   
450000000     -8.4541190    -117.9967000  21.9994300    135.4425000   -26.8550800   -23.1426500   -18.2328400   -100.5130000  
455000000     -8.4116020    -118.9381000  21.9611900    135.1361000   -26.8302400   -23.4504000   -18.1771700   -101.1433000  
460000000     -8.4322360    -119.8973000  21.9314300    134.7353000   -26.8073200   -23.8651000   -18.2007900   -102.0961000  
465000000     -8.4285180    -121.0294000  21.8952300    134.3796000   -26.7790300   -24.2485500   -18.2110100   -102.9746000  
470000000     -8.4327070    -122.0307000  21.8641100    134.0104000   -26.7569300   -24.6264500   -18.1991100   -103.9624000  
475000000     -8.4277450    -123.0347000  21.8276800    133.6168000   -26.7364000   -25.0502900   -18.2299300   -104.8814000  
480000000     -8.4227070    -124.0414000  21.7966500    133.2467000   -26.7155200   -25.4270800   -18.2269500   -105.7859000  
485000000     -8.4502490    -125.0820000  21.7645100    132.8849000   -26.6934900   -25.8271100   -18.2161000   -106.5186000  
490000000     -8.4169160    -126.0546000  21.7275300    132.5412000   -26.6779000   -26.2112400   -18.2347200   -107.3982000  
495000000     -8.4324730    -126.9149000  21.6933400    132.1610000   -26.6599200   -26.6036400   -18.2518700   -108.2674000  
500000000     -8.4455780    -127.8703000  21.6602500    131.8084000   -26.6360400   -27.0252600   -18.2628000   -109.1062000  
505000000     -8.4415680    -128.8659000  21.6211300    131.4554000   -26.6221500   -27.4242700   -18.2796100   -109.9496000  
510000000     -8.4390640    -129.9102000  21.5871300    131.1054000   -26.6015500   -27.8387900   -18.2861300   -110.8170000  
515000000     -8.4281530    -131.0147000  21.5547200    130.7716000   -26.5826000   -28.2080700   -18.2826500   -111.6353000  
520000000     -8.4294610    -131.8875000  21.5149400    130.3714000   -26.5650500   -28.6201800   -18.3083500   -112.4233000  
525000000     -8.4552420    -132.8092000  21.4793800    130.0498000   -26.5465200   -29.0295600   -18.3112600   -113.2151000  
530000000     -8.4638150    -133.7449000  21.4445400    129.7013000   -26.5228400   -29.3860300   -18.3138800   -114.0427000  
535000000     -8.4442100    -134.5320000  21.4055800    129.3531000   -26.5122300   -29.7932600   -18.3120700   -114.9028000  
540000000     -8.4587090    -135.5190000  21.3685600    129.0106000   -26.4934300   -30.1619300   -18.3157700   -115.6372000  
545000000     -8.4489720    -136.4737000  21.3358200    128.6775000   -26.4745100   -30.4875600   -18.2850800   -116.4430000  
550000000     -8.4567010    -137.3354000  21.2984000    128.3885000   -26.4521900   -30.8735200   -18.2730600   -117.1387000  
555000000     -8.4554960    -138.1656000  21.2610800    128.0683000   -26.4282900   -31.2438900   -18.2649400   -117.9378000  
560000000     -8.4308390    -139.0867000  21.2259100    127.7439000   -26.4046700   -31.6265600   -18.2470800   -118.8550000  
565000000     -8.4313170    -140.1124000  21.1972000    127.4324000   -26.3800100   -32.0228200   -18.2214700   -119.8333000  
570000000     -8.4212890    -140.9449000  21.1580300    127.1355000   -26.3543300   -32.3717700   -18.2288800   -120.7240000  
575000000     -8.4148530    -141.8140000  21.1248000    126.7978000   -26.3360300   -32.7708000   -18.2126400   -121.5957000  
580000000     -8.4141190    -142.8081000  21.0965200    126.4704000   -26.3077100   -33.1817800   -18.1974600   -122.6104000  
585000000     -8.4080530    -143.5127000  21.0587700    126.1696000   -26.2835100   -33.5262600   -18.1843700   -123.3236000  
590000000     -8.4052820    -144.6568000  21.0277200    125.8227000   -26.2669800   -33.9713400   -18.2087600   -124.3025000  
595000000     -8.3920050    -145.4726000  20.9939900    125.5453000   -26.2362400   -34.3761400   -18.1917700   -125.3009000  
600000000     -8.3936980    -146.4312000  20.9592500    125.2230000   -26.2150900   -34.7501600   -18.1982000   -125.9111000  
605000000     -8.3760880    -147.3127000  20.9290700    124.9132000   -26.1939300   -35.1642600   -18.1877300   -126.8311000  
610000000     -8.3644500    -148.2180000  20.8967600    124.5903000   -26.1699700   -35.6021400   -18.1992600   -127.9313000  
615000000     -8.3757030    -149.0992000  20.8547000    124.2752000   -26.1479500   -36.0046000   -18.1927800   -128.5286000  
620000000     -8.3644760    -150.0483000  20.8230400    123.9831000   -26.1217200   -36.4265200   -18.1971800   -129.5404000  
625000000     -8.3702950    -150.9568000  20.7854800    123.6746000   -26.1031500   -36.8179100   -18.1963900   -130.4030000  
630000000     -8.3781630    -151.8373000  20.7633000    123.3047000   -26.0873400   -37.2356300   -18.2111000   -131.1823000  
635000000     -8.3807180    -152.7566000  20.7315500    123.0103000   -26.0659400   -37.6419200   -18.2054100   -132.1195000  
640000000     -8.3761200    -153.4700000  20.6975700    122.6908000   -26.0446200   -38.0633900   -18.2109100   -132.9690000  
645000000     -8.3743640    -154.4473000  20.6589100    122.4002000   -26.0198800   -38.4767700   -18.2461200   -133.6924000  
650000000     -8.3653910    -155.2687000  20.6282400    122.1377000   -25.9999700   -38.8609100   -18.2158200   -134.3674000  
655000000     -8.3686600    -156.1569000  20.5934800    121.8247000   -25.9744500   -39.2947400   -18.2074700   -135.1332000  
660000000     -8.3609110    -157.1364000  20.5618600    121.5127000   -25.9527900   -39.7426100   -18.2127000   -136.1722000  
665000000     -8.3796030    -157.9225000  20.5252600    121.2126000   -25.9322800   -40.1599700   -18.2188700   -136.8717000  
670000000     -8.3664340    -158.7552000  20.4912600    120.9200000   -25.9159800   -40.5733600   -18.2373200   -137.6763000  
675000000     -8.3809470    -159.6100000  20.4569000    120.6157000   -25.8964600   -41.0215500   -18.2524600   -138.5764000  
680000000     -8.3666700    -160.4322000  20.4206700    120.3399000   -25.8686600   -41.4501100   -18.2311700   -139.2712000  
685000000     -8.3814580    -161.1806000  20.3845500    120.0550000   -25.8512400   -41.8104100   -18.2463800   -139.9213000  
690000000     -8.3869090    -162.0757000  20.3450000    119.7737000   -25.8392400   -42.2825300   -18.2600300   -140.7817000  
695000000     -8.3949200    -162.9848000  20.3199400    119.4770000   -25.8096500   -42.7053800   -18.2637900   -141.5484000  
700000000     -8.3888030    -163.8420000  20.2842400    119.2002000   -25.7865600   -43.1425400   -18.2600700   -142.3389000  
705000000     -8.4057700    -164.7477000  20.2461400    118.8851000   -25.7731500   -43.6051300   -18.2867900   -143.1422000  
710000000     -8.3876730    -165.3552000  20.2136600    118.6425000   -25.7477000   -43.9768100   -18.2474200   -143.7750000  
715000000     -8.4153360    -166.2272000  20.1792400    118.3195000   -25.7341700   -44.4396100   -18.2913200   -144.6702000  
720000000     -8.4103040    -167.0920000  20.1423100    118.0678000   -25.7149300   -44.8356000   -18.2850400   -145.2122000  
725000000     -8.4192620    -167.8103000  20.1118600    117.7943000   -25.6960200   -45.2602400   -18.2930400   -145.8281000  
730000000     -8.4152160    -168.6453000  20.0730200    117.5144000   -25.6805700   -45.7084000   -18.2998900   -146.6088000  
735000000     -8.4197580    -169.6346000  20.0409000    117.2021000   -25.6592800   -46.1333000   -18.3254000   -147.4422000  
740000000     -8.4302210    -170.2383000  20.0047700    116.9442000   -25.6446700   -46.5579300   -18.3316500   -148.0837000  
745000000     -8.4295310    -171.0371000  19.9702400    116.6699000   -25.6247200   -46.9669600   -18.3253600   -148.7466000  
750000000     -8.4422330    -171.7892000  19.9322400    116.4243000   -25.6107900   -47.3971300   -18.3402400   -149.2784000  
755000000     -8.4615480    -172.6756000  19.8984600    116.1439000   -25.5904700   -47.8285400   -18.3352300   -150.0471000  
760000000     -8.4603860    -173.3922000  19.8636100    115.8817000   -25.5725500   -48.2746200   -18.3337400   -150.6675000  
765000000     -8.4640200    -174.1858000  19.8287600    115.6265000   -25.5540400   -48.6611700   -18.3246700   -151.3381000  
770000000     -8.4625060    -174.9307000  19.7900600    115.3251000   -25.5354200   -49.0531900   -18.3170100   -151.9124000  
