!Created: 1/2/2014 at 2:07:09 PM
!Mini-Circuits  
!S2P DATA File Format
!Type: MMIC Amplifier
!Model: CMA-5043+
!S/N: Unit 1 
!RUN# Q13020, D/C 1336 MOUNTED ON TB-757+
!PIN OUT: PORT 1 - PIN 2, PORT 2 - PIN 7, GROUND - ALL OTHERS
!TEST CONDITIONS: Temp= 25 (Deg C) RF Power= -25.00 (dBm) V limit=5(V) I limit=250(mA) Z=50 OHM 
!Tested with Network Analyzer: !Agilent AG N5242A, S/N 71404, CAL DUE DATE: 5/31/14
!
# Hz  S  dB  R  50
!Frequency    S11 dB        S11 Deg       S21 dB        S21 Deg       S12 dB        S12 Deg       S22 dB        S22 Deg       
10000000      -1.3755590    -22.8130800   27.7152600    165.3250000   -34.4770900   84.1730500    -8.6256900    30.8488800    
15000000      -2.4874490    -30.8822500   27.1125100    163.0122000   -32.1507900   62.0044700    -9.6063930    -1.0614420    
20000000      -3.5381550    -36.1503100   26.6895600    163.4529000   -30.8980300   48.5234100    -10.8212500   -16.5295800   
25000000      -4.5826280    -39.1674400   26.3465700    163.7798000   -30.2240600   39.7473300    -12.0943700   -26.5567400   
30000000      -5.3525690    -40.3456700   26.0341800    164.1588000   -29.8729100   33.5496400    -13.0488100   -32.2675400   
35000000      -6.0141250    -41.0485300   25.8167400    164.6026000   -29.6092300   28.8749700    -13.9203900   -36.0684800   
40000000      -6.6014550    -41.6500100   25.6573000    164.9525000   -29.4567500   24.8715900    -14.7882400   -38.6343200   
45000000      -7.0850200    -42.1391000   25.5522100    165.1564000   -29.3290900   21.8492300    -15.6019000   -41.0188200   
50000000      -7.8646460    -36.1684100   25.4593700    164.4588000   -28.9768800   18.3915400    -17.7542300   -41.9583600   
55000000      -7.7790760    -42.4693500   25.3458900    165.5224000   -29.1451000   16.7149500    -16.7911900   -42.5375800   
60000000      -8.1142790    -43.4162400   25.3216200    165.7005000   -29.1269100   13.8956800    -17.1130400   -46.4804800   
65000000      -8.2513690    -43.2271700   25.2378500    165.4358000   -29.0379600   13.1990000    -17.7255300   -43.5458100   
70000000      -8.4492540    -43.8487200   25.1951300    165.3015000   -29.0150500   11.6216300    -18.1434300   -43.9940900   
75000000      -8.5955160    -44.2009400   25.1588800    165.1290000   -28.9656100   10.3114100    -18.4556200   -44.0774900   
80000000      -8.7686860    -44.7385400   25.1145800    164.9012000   -28.9481900   9.0275300     -18.8092400   -43.5232700   
85000000      -8.8583360    -45.3259400   25.0875600    164.6454000   -28.9251700   7.9566970     -19.1012400   -43.5469500   
90000000      -8.9277960    -46.2604000   25.0612800    164.3735000   -28.9008900   6.8269700     -19.3265300   -43.7686700   
95000000      -9.0421000    -46.5791100   25.0286400    164.0260000   -28.8870000   5.9480120     -19.5891900   -42.9362000   
100000000     -9.0861880    -47.4087200   25.0091600    163.7021000   -28.8680800   5.0868720     -19.8102300   -43.0353500   
105000000     -9.1752610    -48.2159700   24.9807700    163.3718000   -28.8591800   4.2097830     -19.9262000   -42.7973600   
110000000     -9.2509820    -49.1548400   24.9609400    162.9847000   -28.8557400   3.4220020     -20.1759300   -42.6552700   
115000000     -9.2891450    -50.0989900   24.9402400    162.6053000   -28.8442800   2.6723430     -20.2551400   -42.7561800   
120000000     -9.3202770    -50.6832800   24.9138300    162.2139000   -28.8393800   2.0716730     -20.3624000   -41.9509600   
125000000     -9.3701230    -51.8852200   24.8916300    161.8501000   -28.8292000   1.3408180     -20.4468300   -42.3227400   
130000000     -9.3555540    -52.6368100   24.8713200    161.3806000   -28.8040700   0.6521751     -20.5601500   -41.6869000   
135000000     -9.4380370    -53.7935500   24.8529400    160.9627000   -28.8064000   0.0566091     -20.6906000   -42.0464200   
140000000     -9.4518100    -54.6933100   24.8246200    160.5426000   -28.8002500   -0.5032262    -20.6985100   -41.6776200   
145000000     -9.4802690    -55.7092200   24.8058800    160.1176000   -28.7911500   -1.0598060    -20.7776900   -42.0106000   
150000000     -9.4408030    -56.4151400   24.7853900    159.6057000   -28.8176900   -1.6676780    -20.8739400   -40.6652300   
155000000     -9.5279450    -57.7622800   24.7681900    159.1864000   -28.7913000   -2.1467630    -20.8979900   -41.8125200   
160000000     -9.5377670    -59.0754700   24.7457400    158.7673000   -28.7811900   -2.6456000    -20.9177600   -41.8371000   
165000000     -9.5615550    -60.0513500   24.7244400    158.2842000   -28.7794900   -3.2272890    -20.9342700   -41.9310800   
170000000     -9.5816380    -61.0764900   24.7014500    157.8260000   -28.7717900   -3.6548510    -20.9719300   -41.7046200   
175000000     -9.5718640    -62.2378800   24.6793500    157.3819000   -28.7642700   -4.2100530    -20.9937100   -42.2384300   
180000000     -9.5734900    -63.3560400   24.6548200    156.9250000   -28.7510200   -4.6581120    -21.0056400   -42.5614200   
185000000     -9.5866660    -64.5204200   24.6261100    156.4492000   -28.7437100   -5.1224680    -21.0228900   -42.3921500   
190000000     -9.6126720    -65.6079100   24.6079500    155.9888000   -28.7437400   -5.5255590    -21.0467500   -42.9434500   
195000000     -9.6002540    -66.8801300   24.5808800    155.5252000   -28.7278600   -6.0412890    -21.0398600   -43.0490400   
200000000     -9.6135420    -68.0139200   24.5535600    155.0668000   -28.7127200   -6.4711700    -20.9814800   -43.2965500   
205000000     -9.6143020    -69.0770000   24.5316500    154.5936000   -28.7160000   -6.9221970    -21.0373000   -43.4523500   
210000000     -9.6275140    -70.4005900   24.4949100    154.1259000   -28.6971300   -7.3558110    -21.1342400   -43.9298400   
215000000     -9.6309010    -71.4708300   24.4645100    153.6828000   -28.6905600   -7.7933860    -21.0701700   -44.0177600   
220000000     -9.6359520    -72.6935400   24.4390700    153.2265000   -28.6831000   -8.1956700    -21.0352300   -44.5461700   
225000000     -9.6116310    -73.8569000   24.4160700    152.7676000   -28.6795400   -8.6416490    -21.0098400   -45.0493000   
230000000     -9.6150340    -75.0418200   24.3906100    152.2692000   -28.6646700   -9.0715890    -21.0386700   -45.4480900   
235000000     -9.6193510    -76.1322200   24.3620300    151.8315000   -28.6560800   -9.4573640    -20.9747300   -45.8480100   
240000000     -9.6051520    -77.4125900   24.3349500    151.4098000   -28.6485700   -9.9204300    -20.9638000   -46.3148800   
245000000     -9.6202550    -78.4109000   24.3093100    150.9016000   -28.6421800   -10.2597900   -20.9847700   -46.7580300   
250000000     -9.5917220    -79.5322000   24.2773000    150.4098000   -28.6128100   -10.6823400   -21.1035800   -46.7973800   
255000000     -9.6093610    -80.8885700   24.2651900    149.9583000   -28.6309900   -10.9923100   -20.8599000   -48.3423500   
260000000     -9.5841210    -81.8457200   24.2334300    149.5407000   -28.6208300   -11.3754400   -20.8196200   -48.8253400   
265000000     -9.6162490    -83.0941100   24.2018700    149.0561000   -28.6103000   -11.7712900   -20.8089100   -49.2591900   
270000000     -9.5952970    -84.2160000   24.1723400    148.6249000   -28.5834100   -12.1789200   -20.7239400   -49.9630800   
275000000     -9.6140090    -85.3175500   24.1499200    148.1602000   -28.5895100   -12.4974100   -20.7304300   -50.2603500   
280000000     -9.5859610    -86.7080300   24.1156500    147.7114000   -28.5831500   -12.8218000   -20.7286600   -50.9300700   
285000000     -9.5883690    -87.8110400   24.0828700    147.2247000   -28.5735200   -13.3200000   -20.6941100   -50.6514100   
290000000     -9.5918970    -88.8300900   24.0514700    146.7890000   -28.5593000   -13.6063500   -20.6375600   -51.4280400   
295000000     -9.5855870    -90.0357700   24.0219000    146.3358000   -28.5508100   -14.0094500   -20.5962500   -51.9130300   
300000000     -9.5924630    -91.0916400   23.9945500    145.9291000   -28.5365200   -14.3149600   -20.5481200   -53.5173800   
305000000     -9.5814240    -92.4515200   23.9650400    145.4367000   -28.5203000   -14.7583200   -20.6176000   -53.7472600   
310000000     -9.5557420    -93.5992700   23.9292400    145.0078000   -28.5165300   -15.1016000   -20.5342900   -54.1214400   
315000000     -9.5561800    -94.6595500   23.8953900    144.5620000   -28.5075600   -15.4914800   -20.5174300   -54.6101500   
320000000     -9.5274310    -95.7882700   23.8666500    144.1413000   -28.4910400   -15.8192300   -20.4307700   -55.8153800   
325000000     -9.5429800    -96.9776400   23.8400900    143.7016000   -28.4828100   -16.2289600   -20.4687900   -56.2660100   
330000000     -9.5324540    -97.8638500   23.8046000    143.2682000   -28.4724100   -16.5417000   -20.3852600   -56.7434200   
335000000     -9.5207240    -99.1724200   23.7742900    142.8216000   -28.4621800   -16.9569100   -20.3824300   -57.5463400   
340000000     -9.5190940    -100.3316000  23.7421300    142.3759000   -28.4374700   -17.3079200   -20.3687800   -58.1297700   
345000000     -9.5123820    -101.3251000  23.7079500    141.9758000   -28.4337300   -17.6344000   -20.2814400   -58.8434600   
350000000     -9.4894460    -102.4875000  23.6725600    141.5772000   -28.4350800   -17.9888800   -20.2215300   -59.2864600   
355000000     -9.5094590    -103.5924000  23.6418300    141.0853000   -28.4115400   -18.3603000   -20.2763300   -59.9843800   
360000000     -9.4824090    -104.6857000  23.6075000    140.6799000   -28.4005900   -18.6921800   -20.2053000   -60.9550100   
365000000     -9.4868510    -105.8537000  23.5775300    140.2652000   -28.3779600   -19.0699300   -20.2105500   -61.7842000   
370000000     -9.4716730    -106.9144000  23.5402600    139.8345000   -28.3705700   -19.4265000   -20.1518700   -62.0990000   
375000000     -9.4822000    -107.8545000  23.5042200    139.4424000   -28.3580800   -19.7674700   -20.0993500   -62.8605300   
380000000     -9.4955980    -109.0045000  23.4714000    139.0213000   -28.3442200   -20.1434100   -20.0856800   -63.4315100   
385000000     -9.4942600    -110.0443000  23.4379300    138.6103000   -28.3332200   -20.4943200   -20.0520000   -64.0261400   
390000000     -9.4629180    -111.2834000  23.4029300    138.1886000   -28.3141200   -20.7960100   -20.0141000   -64.7642000   
395000000     -9.4547190    -112.4450000  23.3736200    137.8077000   -28.2958800   -21.1898300   -19.9771800   -65.7535900   
400000000     -9.4370840    -113.6082000  23.3261400    137.3927000   -28.2776300   -21.5533400   -19.9926000   -66.1882200   
405000000     -9.4576360    -114.7066000  23.2942000    137.0057000   -28.2615400   -21.9674300   -19.9720600   -67.1692600   
410000000     -9.4281800    -115.5563000  23.2574700    136.6174000   -28.2512700   -22.2727000   -19.9258800   -67.8594400   
415000000     -9.4431730    -116.6796000  23.2209400    136.1881000   -28.2364600   -22.6722000   -19.9187100   -68.6267400   
420000000     -9.4348890    -117.5602000  23.1845800    135.7883000   -28.2180300   -23.0318100   -19.8695000   -69.4175100   
425000000     -9.4180970    -118.8705000  23.1504200    135.3934000   -28.2054800   -23.3866500   -19.8595500   -70.1183700   
430000000     -9.4286330    -119.8753000  23.1149700    134.9931000   -28.1888600   -23.7193400   -19.8420100   -71.0645100   
435000000     -9.3896550    -120.8120000  23.0821700    134.5956000   -28.1706900   -24.0962700   -19.8053200   -71.7710700   
440000000     -9.3921160    -121.8838000  23.0468800    134.2334000   -28.1564500   -24.4336400   -19.7658900   -72.7275500   
445000000     -9.3730010    -122.9423000  23.0132100    133.8646000   -28.1371000   -24.7616700   -19.7245800   -73.3574800   
450000000     -9.4175730    -123.9589000  22.9770100    133.4286000   -28.1186400   -25.2352300   -19.7766800   -74.1520000   
455000000     -9.3729080    -124.8959000  22.9363000    133.1094000   -28.1155400   -25.5106300   -19.6614600   -74.8777500   
460000000     -9.3771780    -125.9052000  22.9033700    132.7001000   -28.0936000   -25.8931900   -19.6542800   -75.6017400   
465000000     -9.3663760    -126.9663000  22.8628800    132.3342000   -28.0772000   -26.2505900   -19.6275400   -76.3168900   
470000000     -9.3748970    -128.1096000  22.8292300    131.9671000   -28.0564500   -26.6210100   -19.5877300   -77.2272300   
475000000     -9.3689060    -129.0631000  22.7914200    131.5544000   -28.0397000   -26.9582400   -19.5831100   -77.9066500   
480000000     -9.3598580    -130.0197000  22.7568100    131.2011000   -28.0249000   -27.3441000   -19.5465600   -78.7183800   
485000000     -9.3823220    -131.0548000  22.7222000    130.8247000   -28.0079900   -27.6967500   -19.4909200   -79.4319200   
490000000     -9.3462670    -132.0277000  22.6830500    130.4713000   -27.9974800   -28.0576100   -19.4745800   -80.1171700   
495000000     -9.3581380    -132.9299000  22.6461300    130.0812000   -27.9843700   -28.4518000   -19.4580700   -80.8069200   
500000000     -9.3723650    -133.8750000  22.6124900    129.7153000   -27.9707700   -28.8238400   -19.4316100   -81.5119200   
505000000     -9.3617830    -134.8968000  22.5702200    129.3612000   -27.9518700   -29.1326700   -19.3891400   -82.2448400   
510000000     -9.3632600    -135.9090000  22.5326400    129.0085000   -27.9351300   -29.5646800   -19.3621600   -82.9962500   
515000000     -9.3544520    -136.9870000  22.4973900    128.6739000   -27.9166600   -29.8860000   -19.3229000   -83.7438400   
520000000     -9.3482590    -137.8380000  22.4557200    128.2811000   -27.9094700   -30.2446000   -19.3125100   -84.3738500   
525000000     -9.3609970    -138.7825000  22.4189900    127.9470000   -27.8937700   -30.6593400   -19.2742300   -85.0680500   
530000000     -9.3709430    -139.7177000  22.3819500    127.5946000   -27.8801100   -31.0041900   -19.2442400   -85.8163300   
535000000     -9.3557110    -140.5127000  22.3401300    127.2420000   -27.8647400   -31.3381900   -19.2137700   -86.6187200   
540000000     -9.3602110    -141.5011000  22.2999500    126.8924000   -27.8466600   -31.6681200   -19.1766200   -87.2825000   
545000000     -9.3525510    -142.4690000  22.2661800    126.5558000   -27.8314600   -32.0222300   -19.1142500   -88.1362500   
550000000     -9.3575130    -143.2384000  22.2247400    126.2730000   -27.8162400   -32.3728500   -19.0661100   -88.8248700   
555000000     -9.3584770    -144.1285000  22.1854500    125.9445000   -27.7929400   -32.7009900   -19.0247600   -89.5855700   
560000000     -9.3231830    -144.9986000  22.1461800    125.6099000   -27.7757800   -33.0459500   -18.9833500   -90.5043800   
565000000     -9.3094170    -145.9866000  22.1163900    125.3064000   -27.7500200   -33.4264200   -18.9485500   -91.4940600   
570000000     -9.3076060    -146.9002000  22.0751300    124.9941000   -27.7341300   -33.7643500   -18.9319800   -92.3041200   
575000000     -9.3078510    -147.7174000  22.0408000    124.6453000   -27.7122100   -34.1260600   -18.8914900   -93.1595800   
580000000     -9.2945160    -148.6942000  22.0114900    124.3177000   -27.6891500   -34.4706200   -18.8626100   -94.1663100   
585000000     -9.2879700    -149.4880000  21.9701300    124.0042000   -27.6695900   -34.8108000   -18.8131400   -94.8726200   
590000000     -9.2889950    -150.4927000  21.9369200    123.6696000   -27.6486700   -35.2076500   -18.8169100   -95.6809700   
595000000     -9.2688740    -151.4172000  21.9009600    123.3693000   -27.6264100   -35.6102300   -18.7855900   -96.6717500   
600000000     -9.2717400    -152.3022000  21.8621600    123.0611000   -27.6068800   -35.9766100   -18.7418000   -97.2622000   
605000000     -9.2488630    -153.2053000  21.8299800    122.7389000   -27.5864100   -36.3341900   -18.7134100   -98.1724700   
610000000     -9.2283250    -154.0653000  21.7972500    122.4177000   -27.5683400   -36.7113200   -18.7170300   -99.1654900   
615000000     -9.2377430    -154.9595000  21.7533000    122.0977000   -27.5418400   -37.1214000   -18.6640000   -99.7596100   
620000000     -9.2274070    -155.8574000  21.7197200    121.7989000   -27.5287500   -37.4596400   -18.6578700   -100.6994000  
625000000     -9.2296600    -156.7745000  21.6805700    121.4954000   -27.5005800   -37.8831300   -18.6322200   -101.5354000  
630000000     -9.2348950    -157.6809000  21.6544200    121.1339000   -27.4902700   -38.2371400   -18.6212400   -102.2475000  
635000000     -9.2412370    -158.5162000  21.6213500    120.8229000   -27.4809600   -38.6111300   -18.6002500   -103.1686000  
640000000     -9.2389390    -159.3253000  21.5843800    120.5042000   -27.4549000   -38.9897200   -18.5845300   -103.9316000  
645000000     -9.2299970    -160.2188000  21.5432400    120.2128000   -27.4312500   -39.3554500   -18.5800600   -104.5303000  
650000000     -9.2217080    -161.0945000  21.5114500    119.9415000   -27.4105000   -39.7583200   -18.5183100   -105.3263000  
655000000     -9.2150600    -161.9730000  21.4760700    119.6296000   -27.3864700   -40.1156100   -18.4813800   -106.0744000  
660000000     -9.2215080    -162.8380000  21.4398100    119.3121000   -27.3694500   -40.5572600   -18.4776500   -107.0224000  
665000000     -9.2165180    -163.6827000  21.4019900    119.0179000   -27.3471800   -40.9432400   -18.4473100   -107.6955000  
670000000     -9.2197420    -164.4852000  21.3675600    118.7251000   -27.3337700   -41.3504000   -18.4379800   -108.4381000  
675000000     -9.2342410    -165.3246000  21.3277400    118.4180000   -27.3158200   -41.7364300   -18.4290700   -109.2379000  
680000000     -9.2051710    -166.1459000  21.2898200    118.1226000   -27.2887600   -42.1321800   -18.3801600   -110.0117000  
685000000     -9.2337850    -166.9257000  21.2535700    117.8567000   -27.2752700   -42.4938300   -18.3578800   -110.6492000  
690000000     -9.2294400    -167.8458000  21.2122000    117.5752000   -27.2552300   -42.8896600   -18.3463700   -111.4390000  
695000000     -9.2169630    -168.6076000  21.1830800    117.2667000   -27.2382800   -43.2887400   -18.3226900   -112.1932000  
700000000     -9.2300680    -169.5584000  21.1471300    116.9963000   -27.2182700   -43.7041100   -18.2980000   -112.9767000  
705000000     -9.2462230    -170.3811000  21.1079900    116.6910000   -27.2030200   -44.1279600   -18.2954900   -113.6979000  
710000000     -9.2226620    -170.9887000  21.0720700    116.4258000   -27.1744100   -44.4516900   -18.2302300   -114.4673000  
715000000     -9.2430460    -171.8855000  21.0363600    116.1074000   -27.1611500   -44.8997500   -18.2486200   -115.1844000  
720000000     -9.2307030    -172.6817000  20.9992100    115.8602000   -27.1429300   -45.2986800   -18.2007800   -115.7843000  
725000000     -9.2510910    -173.4019000  20.9642300    115.5852000   -27.1263000   -45.6683200   -18.1742600   -116.4234000  
730000000     -9.2432120    -174.1834000  20.9240100    115.2950000   -27.1022600   -46.0822000   -18.1552400   -117.1807000  
735000000     -9.2513380    -175.2213000  20.8896800    114.9895000   -27.0884900   -46.4787100   -18.1562300   -117.9132000  
740000000     -9.2520150    -175.7921000  20.8526700    114.7389000   -27.0723800   -46.8913300   -18.1289700   -118.5556000  
745000000     -9.2583930    -176.6333000  20.8156300    114.4496000   -27.0556600   -47.2745200   -18.0888200   -119.2798000  
750000000     -9.2567190    -177.3346000  20.7759300    114.2011000   -27.0415300   -47.6547200   -18.0615900   -119.8595000  
755000000     -9.2857960    -178.2459000  20.7419100    113.9300000   -27.0173900   -48.0565600   -18.0355400   -120.6530000  
760000000     -9.2744690    -178.8759000  20.7056000    113.6676000   -27.0048100   -48.4687600   -18.0030700   -121.3234000  
765000000     -9.2827130    -179.6585000  20.6692600    113.4035000   -26.9828600   -48.8326500   -17.9673200   -122.0525000  
770000000     -9.2756450    179.5197000   20.6296800    113.1126000   -26.9652500   -49.1923900   -17.9287800   -122.7123000  
