!Created: 1/2/2014 at 2:07:09 PM
!Mini-Circuits  
!S2P DATA File Format
!Type: MMIC Amplifier
!Model: CMA-5043+
!S/N: Unit 1 
!RUN# Q13020, D/C 1336 MOUNTED ON TB-757+
!PIN OUT: PORT 1 - PIN 2, PORT 2 - PIN 7, GROUND - ALL OTHERS
!TEST CONDITIONS: Temp= 25 (Deg C) RF Power= -25.00 (dBm) V limit=5(V) I limit=250(mA) Z=50 OHM 
!Tested with Network Analyzer: !Agilent AG N5242A, S/N 71404, CAL DUE DATE: 5/31/14
!
# GHz  S  dB  R  50
!Frequency    S11 dB        S11 Deg       S21 dB        S21 Deg       S12 dB        S12 Deg       S22 dB        S22 Deg       
0.01	-22.641	-43.141	-4.281	-5.302	-4.272	-5.347	-23.555	-60.577
0.022488	-26.4	-33.405	-4.516	-3.121	-4.512	-3.135	-29.44	-60.453
0.034975	-27.694	-26.314	-4.566	-2.568	-4.561	-2.566	-32.378	-55.339
0.047463	-28.388	-21.816	-4.586	-2.365	-4.582	-2.384	-34.223	-50.777
0.05995	-28.75	-18.787	-4.596	-2.375	-4.594	-2.378	-35.504	-46.153
0.072437	-28.974	-16.502	-4.605	-2.465	-4.6	-2.479	-36.331	-42.461
0.084925	-29.12	-14.935	-4.608	-2.604	-4.605	-2.619	-36.898	-38.967
0.097413	-29.251	-13.726	-4.613	-2.776	-4.609	-2.785	-37.422	-36.335
0.1099	-29.315	-12.784	-4.615	-2.956	-4.611	-2.967	-37.765	-33.819
0.122388	-29.374	-12.078	-4.617	-3.159	-4.615	-3.17	-38.014	-32.125
0.134875	-29.438	-11.533	-4.62	-3.369	-4.617	-3.375	-38.221	-30.394
0.147363	-29.48	-11.102	-4.621	-3.597	-4.617	-3.598	-38.393	-29.193
0.15985	-29.508	-10.729	-4.624	-3.819	-4.618	-3.826	-38.569	-27.8
0.172338	-29.537	-10.498	-4.626	-4.044	-4.622	-4.054	-38.692	-26.822
0.184825	-29.58	-10.281	-4.629	-4.283	-4.624	-4.281	-38.814	-25.754
0.197312	-29.593	-10.092	-4.631	-4.515	-4.627	-4.52	-38.832	-24.953
0.2098	-29.63	-9.906	-4.633	-4.744	-4.627	-4.757	-38.928	-24.039
0.222288	-29.648	-9.8	-4.635	-4.994	-4.63	-5.001	-38.976	-23.49
0.234775	-29.659	-9.801	-4.638	-5.234	-4.631	-5.245	-39.019	-22.968
0.247263	-29.677	-9.697	-4.639	-5.473	-4.635	-5.468	-39.028	-22.502
0.25975	-29.713	-9.676	-4.641	-5.711	-4.636	-5.71	-39.027	-22.064
0.272238	-29.707	-9.676	-4.642	-5.949	-4.638	-5.958	-39.064	-21.437
0.284725	-29.712	-9.591	-4.644	-6.199	-4.638	-6.204	-39.104	-20.955
0.297213	-29.742	-9.635	-4.645	-6.439	-4.641	-6.454	-39.047	-20.562
0.3097	-29.734	-9.661	-4.646	-6.691	-4.643	-6.697	-39.065	-20.003
0.322187	-29.758	-9.696	-4.65	-6.925	-4.644	-6.939	-39.057	-19.709
0.334675	-29.749	-9.76	-4.652	-7.177	-4.646	-7.196	-39.04	-19.561
0.347163	-29.766	-9.938	-4.652	-7.426	-4.646	-7.434	-39.038	-19.487
0.35965	-29.785	-9.917	-4.653	-7.67	-4.649	-7.677	-39.001	-19.054
0.372138	-29.78	-10.009	-4.654	-7.914	-4.649	-7.928	-38.951	-18.429
0.384625	-29.794	-10.107	-4.656	-8.159	-4.65	-8.172	-38.933	-17.95
0.397113	-29.782	-10.282	-4.657	-8.41	-4.653	-8.411	-38.865	-17.864
0.4096	-29.808	-10.444	-4.659	-8.655	-4.654	-8.664	-38.829	-17.455
0.422088	-29.798	-10.435	-4.662	-8.897	-4.658	-8.91	-38.736	-17.513
0.434575	-29.805	-10.543	-4.662	-9.146	-4.657	-9.16	-38.69	-17.572
0.447062	-29.794	-10.612	-4.665	-9.397	-4.66	-9.403	-38.632	-17.331
0.45955	-29.823	-10.722	-4.666	-9.646	-4.662	-9.659	-38.578	-17.321
0.472038	-29.816	-10.849	-4.669	-9.892	-4.664	-9.903	-38.504	-17.135
0.484525	-29.825	-10.926	-4.669	-10.141	-4.666	-10.149	-38.442	-16.876
0.497013	-29.833	-11.103	-4.67	-10.395	-4.665	-10.406	-38.389	-16.802
0.5095	-29.849	-11.182	-4.669	-10.64	-4.666	-10.643	-38.358	-16.747
0.521987	-29.889	-11.28	-4.672	-10.89	-4.665	-10.899	-38.232	-16.616
0.534475	-29.891	-11.373	-4.674	-11.14	-4.669	-11.15	-38.247	-16.783
0.546962	-29.915	-11.616	-4.676	-11.39	-4.669	-11.406	-38.173	-16.693
0.55945	-29.945	-11.767	-4.677	-11.642	-4.67	-11.65	-38.156	-16.681
0.571937	-29.969	-11.927	-4.681	-11.888	-4.674	-11.907	-38.066	-16.667
0.584425	-29.989	-12.155	-4.681	-12.149	-4.675	-12.156	-38.013	-16.67
0.596913	-30.02	-12.301	-4.68	-12.4	-4.675	-12.41	-37.95	-16.893
0.6094	-30.055	-12.568	-4.684	-12.649	-4.672	-12.657	-37.949	-16.946
0.621888	-30.07	-12.765	-4.684	-12.902	-4.675	-12.912	-37.911	-16.751
0.634375	-30.113	-12.94	-4.686	-13.153	-4.678	-13.164	-37.886	-16.935
0.646863	-30.142	-13.199	-4.687	-13.406	-4.68	-13.414	-37.846	-17.219
0.65935	-30.167	-13.477	-4.69	-13.657	-4.684	-13.67	-37.832	-17.361
0.671838	-30.201	-13.763	-4.691	-13.912	-4.684	-13.922	-37.836	-17.396
0.684325	-30.219	-13.988	-4.692	-14.162	-4.684	-14.174	-37.793	-17.681
0.696812	-30.25	-14.339	-4.694	-14.417	-4.688	-14.43	-37.767	-17.829
0.7093	-30.285	-14.584	-4.696	-14.666	-4.692	-14.678	-37.754	-18.185
0.721788	-30.316	-14.81	-4.699	-14.92	-4.694	-14.934	-37.727	-18.436
0.734275	-30.34	-14.977	-4.699	-15.169	-4.693	-15.187	-37.734	-18.423
0.746763	-30.384	-15.166	-4.702	-15.429	-4.698	-15.436	-37.734	-18.649
0.75925	-30.408	-15.389	-4.704	-15.68	-4.698	-15.691	-37.714	-18.955
0.771738	-30.442	-15.555	-4.705	-15.934	-4.702	-15.941	-37.722	-19.096
0.784225	-30.469	-15.755	-4.709	-16.182	-4.705	-16.198	-37.716	-19.202
0.796713	-30.5	-16.021	-4.711	-16.437	-4.707	-16.441	-37.697	-19.327
0.8092	-30.544	-16.132	-4.714	-16.685	-4.707	-16.69	-37.711	-19.596
0.821687	-30.569	-16.418	-4.716	-16.939	-4.712	-16.947	-37.732	-19.791
0.834175	-30.613	-16.642	-4.718	-17.186	-4.714	-17.202	-37.763	-19.997
0.846663	-30.652	-16.893	-4.721	-17.434	-4.718	-17.45	-37.797	-20.078
0.85915	-30.707	-17.04	-4.722	-17.686	-4.719	-17.701	-37.836	-20.112
0.871638	-30.754	-17.263	-4.724	-17.931	-4.721	-17.951	-37.898	-20.264
0.884125	-30.816	-17.447	-4.727	-18.181	-4.723	-18.202	-37.903	-20.309
0.896613	-30.854	-17.635	-4.731	-18.434	-4.726	-18.453	-37.959	-20.433
0.9091	-30.905	-17.829	-4.732	-18.688	-4.727	-18.704	-38.011	-20.7
0.921588	-30.952	-18.159	-4.735	-18.939	-4.732	-18.96	-38.081	-20.903
0.934075	-31.003	-18.407	-4.736	-19.186	-4.734	-19.203	-38.118	-20.886
0.946562	-31.05	-18.611	-4.74	-19.437	-4.738	-19.451	-38.157	-21.137
0.95905	-31.092	-18.908	-4.743	-19.684	-4.738	-19.702	-38.171	-21.283
0.971538	-31.129	-19.129	-4.743	-19.936	-4.739	-19.944	-38.191	-21.604
0.984025	-31.178	-19.444	-4.747	-20.188	-4.742	-20.201	-38.261	-21.894
0.996513	-31.224	-19.73	-4.748	-20.437	-4.744	-20.452	-38.293	-22.155
1.009	-31.267	-20.051	-4.749	-20.687	-4.744	-20.703	-38.322	-22.397
1.021488	-31.299	-20.362	-4.75	-20.936	-4.745	-20.946	-38.333	-22.897
1.033975	-31.346	-20.753	-4.752	-21.185	-4.75	-21.196	-38.384	-23.399
1.046463	-31.373	-21.101	-4.755	-21.44	-4.75	-21.454	-38.401	-23.742
1.05895	-31.408	-21.384	-4.759	-21.684	-4.752	-21.701	-38.438	-23.985
1.071437	-31.453	-21.617	-4.762	-21.943	-4.757	-21.959	-38.442	-24.263
1.083925	-31.489	-21.83	-4.765	-22.191	-4.762	-22.208	-38.472	-24.272
1.096413	-31.512	-22.111	-4.768	-22.441	-4.765	-22.452	-38.495	-24.22
1.1089	-31.54	-22.357	-4.771	-22.695	-4.769	-22.708	-38.488	-24.326
1.121388	-31.569	-22.537	-4.774	-22.944	-4.77	-22.959	-38.536	-24.146
1.133875	-31.609	-22.786	-4.777	-23.198	-4.773	-23.206	-38.537	-24.01
1.146362	-31.643	-22.973	-4.781	-23.446	-4.777	-23.457	-38.561	-23.915
1.15885	-31.658	-23.246	-4.783	-23.695	-4.779	-23.711	-38.594	-23.917
1.171338	-31.678	-23.521	-4.787	-23.949	-4.782	-23.968	-38.633	-23.954
1.183825	-31.689	-23.898	-4.789	-24.201	-4.785	-24.22	-38.679	-24.131
1.196312	-31.7	-24.414	-4.794	-24.445	-4.791	-24.467	-38.718	-24.138
1.2088	-31.726	-24.934	-4.797	-24.694	-4.794	-24.717	-38.782	-24.282
1.221288	-31.74	-25.574	-4.801	-24.944	-4.799	-24.964	-38.831	-24.422
1.233775	-31.743	-26.176	-4.806	-25.192	-4.802	-25.214	-38.85	-24.603
1.246263	-31.735	-26.801	-4.809	-25.441	-4.805	-25.46	-38.913	-24.663
1.25875	-31.743	-27.523	-4.813	-25.69	-4.812	-25.71	-38.979	-24.897
1.271238	-31.747	-28.242	-4.817	-25.932	-4.817	-25.958	-38.967	-25.113
1.283725	-31.728	-29.117	-4.822	-26.179	-4.818	-26.198	-39.014	-25.358
1.296213	-31.708	-29.974	-4.825	-26.428	-4.821	-26.447	-39.006	-25.68
1.3087	-31.71	-30.911	-4.831	-26.669	-4.829	-26.686	-39.012	-26.083
1.321187	-31.701	-31.796	-4.837	-26.91	-4.834	-26.927	-38.98	-26.524
1.333675	-31.69	-32.772	-4.842	-27.152	-4.838	-27.169	-38.971	-26.91
1.346163	-31.672	-33.833	-4.847	-27.387	-4.842	-27.409	-38.94	-27.237
1.35865	-31.667	-35.095	-4.852	-27.62	-4.846	-27.636	-38.888	-27.774
1.371138	-31.634	-36.482	-4.857	-27.851	-4.854	-27.873	-38.809	-28.389
1.383625	-31.647	-37.908	-4.862	-28.077	-4.858	-28.1	-38.761	-28.976
1.396113	-31.68	-39.283	-4.866	-28.308	-4.864	-28.32	-38.71	-29.755
1.4086	-31.726	-40.657	-4.87	-28.526	-4.864	-28.54	-38.638	-30.4
1.421088	-31.765	-41.95	-4.873	-28.753	-4.871	-28.774	-38.579	-31.177
1.433575	-31.81	-43.23	-4.878	-28.978	-4.875	-29	-38.503	-32.22
1.446062	-31.851	-44.609	-4.881	-29.196	-4.875	-29.22	-38.441	-32.85
1.45855	-31.914	-46.082	-4.883	-29.412	-4.879	-29.433	-38.405	-33.832
1.471038	-31.992	-47.783	-4.886	-29.628	-4.882	-29.647	-38.321	-34.798
1.483525	-32.092	-49.327	-4.889	-29.852	-4.887	-29.873	-38.313	-35.793
1.496013	-32.223	-50.878	-4.891	-30.071	-4.886	-30.091	-38.303	-36.589
1.5085	-32.344	-52.395	-4.891	-30.297	-4.887	-30.317	-38.305	-37.645
1.520988	-32.476	-53.748	-4.892	-30.514	-4.889	-30.536	-38.317	-38.747
1.533475	-32.607	-55.198	-4.892	-30.741	-4.891	-30.762	-38.39	-39.67
1.545963	-32.752	-56.516	-4.894	-30.971	-4.892	-30.993	-38.426	-40.666
1.55845	-32.881	-57.821	-4.895	-31.2	-4.892	-31.219	-38.494	-41.62
1.570937	-33.017	-59.043	-4.895	-31.426	-4.892	-31.446	-38.512	-42.77
1.583425	-33.115	-60.254	-4.895	-31.658	-4.891	-31.68	-38.592	-43.754
1.595913	-33.246	-61.513	-4.895	-31.891	-4.89	-31.91	-38.62	-45.085
1.6084	-33.345	-62.746	-4.895	-32.127	-4.89	-32.138	-38.706	-46.097
1.620888	-33.467	-64.056	-4.897	-32.361	-4.894	-32.376	-38.768	-47.187
1.633375	-33.609	-65.234	-4.897	-32.588	-4.894	-32.612	-38.846	-48.169
1.645863	-33.733	-66.491	-4.896	-32.827	-4.893	-32.848	-38.903	-49.262
1.65835	-33.885	-67.538	-4.897	-33.066	-4.892	-33.081	-38.946	-50.516
1.670838	-34.024	-68.543	-4.897	-33.304	-4.895	-33.322	-38.996	-51.613
1.683325	-34.166	-69.465	-4.897	-33.541	-4.893	-33.556	-39.049	-52.65
1.695812	-34.278	-70.422	-4.898	-33.786	-4.894	-33.8	-39.075	-53.806
1.7083	-34.392	-71.192	-4.898	-34.023	-4.894	-34.044	-39.107	-55.064
1.720788	-34.506	-72.023	-4.9	-34.268	-4.895	-34.283	-39.14	-56.108
1.733275	-34.613	-72.898	-4.9	-34.512	-4.898	-34.53	-39.155	-57.155
1.745763	-34.738	-73.619	-4.901	-34.752	-4.897	-34.77	-39.183	-58.152
1.75825	-34.866	-74.518	-4.902	-34.996	-4.9	-35.016	-39.224	-59.055
1.770738	-35.007	-75.203	-4.903	-35.234	-4.9	-35.253	-39.271	-59.875
1.783225	-35.114	-75.971	-4.904	-35.48	-4.901	-35.495	-39.306	-60.682
1.795713	-35.224	-76.575	-4.904	-35.728	-4.901	-35.741	-39.333	-61.29
1.8082	-35.358	-77.385	-4.906	-35.974	-4.902	-35.985	-39.365	-61.858
1.820687	-35.448	-77.915	-4.908	-36.213	-4.906	-36.227	-39.449	-62.542
1.833175	-35.578	-78.509	-4.909	-36.46	-4.907	-36.472	-39.512	-63.331
1.845663	-35.663	-79.166	-4.912	-36.699	-4.909	-36.715	-39.595	-63.867
1.85815	-35.724	-79.814	-4.913	-36.941	-4.909	-36.96	-39.676	-64.487
1.870638	-35.749	-80.58	-4.916	-37.192	-4.911	-37.199	-39.75	-65.361
1.883125	-35.802	-81.795	-4.917	-37.428	-4.912	-37.447	-39.843	-66.239
1.895613	-35.881	-82.834	-4.919	-37.669	-4.914	-37.682	-39.908	-67.208
1.9081	-36.002	-83.872	-4.921	-37.912	-4.916	-37.93	-39.995	-68.054
1.920588	-36.089	-84.461	-4.921	-38.156	-4.918	-38.174	-40.11	-69.301
1.933075	-36.139	-85.066	-4.922	-38.397	-4.918	-38.415	-40.186	-70.225
1.945562	-36.204	-85.711	-4.924	-38.639	-4.921	-38.661	-40.231	-71.608
1.95805	-36.246	-86.291	-4.925	-38.886	-4.921	-38.905	-40.322	-72.802
1.970538	-36.234	-86.973	-4.927	-39.128	-4.923	-39.153	-40.378	-74.072
1.983025	-36.183	-87.983	-4.931	-39.366	-4.925	-39.384	-40.454	-75.168
1.995513	-36.168	-89.388	-4.936	-39.61	-4.929	-39.629	-40.51	-76.714
2.008	-36.185	-90.865	-4.937	-39.848	-4.932	-39.868	-40.52	-78.169
2.020488	-36.232	-92.427	-4.936	-40.084	-4.933	-40.108	-40.524	-79.696
2.032975	-36.35	-94.049	-4.939	-40.33	-4.935	-40.356	-40.569	-80.928
2.045463	-36.419	-95.333	-4.941	-40.571	-4.937	-40.592	-40.526	-82.251
2.05795	-36.551	-96.541	-4.942	-40.814	-4.939	-40.836	-40.536	-83.184
2.070437	-36.624	-97.553	-4.943	-41.06	-4.939	-41.083	-40.502	-84.494
2.082925	-36.754	-98.601	-4.946	-41.302	-4.944	-41.327	-40.462	-85.361
2.095412	-36.867	-99.443	-4.946	-41.548	-4.944	-41.569	-40.507	-86.661
2.1079	-36.943	-100.076	-4.949	-41.789	-4.945	-41.812	-40.491	-87.598
2.120388	-37.024	-100.544	-4.95	-42.028	-4.948	-42.051	-40.525	-88.66
2.132875	-37.048	-101.311	-4.952	-42.269	-4.949	-42.296	-40.517	-89.929
2.145363	-37.033	-102.399	-4.955	-42.506	-4.952	-42.53	-40.643	-90.941
2.15785	-37.107	-103.847	-4.955	-42.744	-4.951	-42.771	-40.699	-92.207
2.170338	-37.167	-105.251	-4.958	-42.992	-4.956	-43.011	-40.727	-93.167
2.182825	-37.268	-106.647	-4.96	-43.231	-4.958	-43.247	-40.943	-94.335
2.195312	-37.306	-107.835	-4.961	-43.477	-4.957	-43.5	-41.052	-95.481
2.2078	-37.371	-108.842	-4.963	-43.718	-4.96	-43.737	-41.12	-96.81
2.220287	-37.384	-109.983	-4.965	-43.954	-4.962	-43.976	-41.218	-98.795
2.232775	-37.454	-111.476	-4.966	-44.199	-4.964	-44.218	-41.323	-100.497
2.245263	-37.475	-112.917	-4.967	-44.437	-4.964	-44.459	-41.433	-102.751
2.25775	-37.543	-114.601	-4.97	-44.68	-4.966	-44.7	-41.507	-104.912
2.270238	-37.594	-116.269	-4.97	-44.924	-4.968	-44.943	-41.524	-106.982
2.282725	-37.67	-118.103	-4.973	-45.167	-4.966	-45.19	-41.557	-109.305
2.295213	-37.711	-119.627	-4.976	-45.409	-4.97	-45.433	-41.502	-111.407
2.3077	-37.723	-121.228	-4.977	-45.652	-4.973	-45.677	-41.549	-113.766
2.320187	-37.739	-123.005	-4.98	-45.892	-4.976	-45.914	-41.45	-115.722
2.332675	-37.71	-124.64	-4.982	-46.134	-4.977	-46.16	-41.354	-118.01
2.345162	-37.713	-126.217	-4.984	-46.375	-4.979	-46.397	-41.22	-119.486
2.35765	-37.72	-127.813	-4.986	-46.621	-4.982	-46.642	-41.167	-121.531
2.370138	-37.766	-129.248	-4.988	-46.86	-4.983	-46.886	-41.041	-123.29
2.382625	-37.785	-130.754	-4.99	-47.104	-4.985	-47.121	-40.858	-124.908
2.395113	-37.811	-132.232	-4.991	-47.348	-4.989	-47.366	-40.733	-126.429
2.4076	-37.837	-133.845	-4.995	-47.592	-4.991	-47.61	-40.616	-127.65
2.420088	-37.854	-135.64	-4.996	-47.835	-4.992	-47.848	-40.539	-128.717
2.432575	-37.847	-137.3	-4.997	-48.071	-4.995	-48.087	-40.403	-130.022
2.445062	-37.866	-138.821	-5.001	-48.312	-4.996	-48.324	-40.311	-130.963
2.45755	-37.923	-140.276	-5.001	-48.556	-4.997	-48.574	-40.245	-132.183
2.470038	-37.996	-141.32	-5.003	-48.793	-4.999	-48.806	-40.181	-133.459
2.482525	-38.01	-142.44	-5.006	-49.034	-5.002	-49.056	-40.15	-134.982
2.495013	-37.999	-143.839	-5.008	-49.276	-5.005	-49.293	-40.128	-136.588
2.5075	-38.014	-145.383	-5.009	-49.517	-5.007	-49.539	-40.122	-138.297
2.519988	-37.966	-146.746	-5.01	-49.76	-5.007	-49.777	-40.039	-140.021
2.532475	-37.905	-148.14	-5.015	-49.998	-5.008	-50.019	-39.963	-141.444
2.544963	-37.894	-149.627	-5.016	-50.241	-5.012	-50.257	-39.927	-143.248
2.55745	-37.85	-151.013	-5.017	-50.483	-5.012	-50.501	-39.828	-144.983
2.569937	-37.75	-152.686	-5.02	-50.721	-5.013	-50.74	-39.734	-146.955
2.582425	-37.677	-154.39	-5.019	-50.969	-5.013	-50.984	-39.567	-148.619
2.594913	-37.54	-155.973	-5.022	-51.209	-5.015	-51.23	-39.373	-150.369
2.6074	-37.463	-157.577	-5.025	-51.453	-5.02	-51.473	-39.185	-152.321
2.619888	-37.377	-158.863	-5.026	-51.697	-5.021	-51.717	-39.004	-153.804
2.632375	-37.285	-160.212	-5.028	-51.94	-5.024	-51.962	-38.711	-155.318
2.644863	-37.228	-161.788	-5.03	-52.186	-5.026	-52.201	-38.503	-156.982
2.65735	-37.109	-162.982	-5.032	-52.428	-5.029	-52.44	-38.221	-158.159
2.669838	-36.987	-164.226	-5.034	-52.675	-5.029	-52.689	-37.967	-159.228
2.682325	-36.853	-165.397	-5.038	-52.917	-5.031	-52.928	-37.738	-160.156
2.694812	-36.755	-166.553	-5.042	-53.155	-5.036	-53.174	-37.5	-161.057
2.7073	-36.646	-167.66	-5.043	-53.398	-5.038	-53.422	-37.298	-161.784
2.719788	-36.567	-168.813	-5.045	-53.639	-5.04	-53.654	-37.114	-162.331
2.732275	-36.474	-169.832	-5.048	-53.882	-5.04	-53.902	-36.905	-162.631
2.744763	-36.377	-170.921	-5.05	-54.122	-5.043	-54.143	-36.756	-163.395
2.75725	-36.316	-172.04	-5.051	-54.364	-5.045	-54.389	-36.582	-163.993
2.769738	-36.23	-172.974	-5.052	-54.61	-5.049	-54.632	-36.435	-164.498
2.782225	-36.147	-174.226	-5.055	-54.854	-5.051	-54.875	-36.299	-165.107
2.794713	-36.064	-175.329	-5.058	-55.095	-5.053	-55.115	-36.174	-165.65
2.8072	-35.986	-176.152	-5.062	-55.336	-5.056	-55.361	-36.071	-166.205
2.819687	-35.906	-177.273	-5.063	-55.582	-5.06	-55.607	-35.957	-166.694
2.832175	-35.784	-178.184	-5.064	-55.823	-5.058	-55.851	-35.869	-167.437
2.844663	-35.686	-179.214	-5.067	-56.066	-5.06	-56.089	-35.725	-167.886
2.85715	-35.565	179.679	-5.071	-56.299	-5.065	-56.322	-35.61	-168.378
2.869638	-35.442	178.637	-5.071	-56.541	-5.066	-56.567	-35.478	-168.934
2.882125	-35.345	177.39	-5.075	-56.783	-5.071	-56.808	-35.326	-169.57
2.894613	-35.208	176.339	-5.074	-57.029	-5.07	-57.053	-35.114	-170.211
2.9071	-35.106	175.441	-5.079	-57.275	-5.075	-57.308	-34.944	-170.864
2.919588	-35.006	174.524	-5.083	-57.512	-5.08	-57.543	-34.749	-171.476
2.932075	-34.873	173.526	-5.085	-57.752	-5.079	-57.785	-34.557	-172.232
2.944562	-34.758	172.508	-5.087	-57.992	-5.083	-58.023	-34.377	-172.681
2.95705	-34.634	171.55	-5.09	-58.231	-5.083	-58.257	-34.165	-173.296
2.969538	-34.509	170.845	-5.092	-58.471	-5.087	-58.503	-33.936	-173.637
2.982025	-34.402	169.851	-5.094	-58.711	-5.088	-58.745	-33.721	-174.144
2.994513	-34.3	169.066	-5.095	-58.952	-5.089	-58.988	-33.492	-174.499
3.007	-34.184	168.43	-5.1	-59.194	-5.094	-59.23	-33.32	-174.79
3.019488	-34.058	167.895	-5.102	-59.435	-5.095	-59.472	-33.14	-174.911
3.031975	-33.946	167.377	-5.105	-59.677	-5.1	-59.712	-32.964	-174.995
3.044463	-33.837	166.858	-5.107	-59.915	-5.101	-59.953	-32.815	-175.199
3.05695	-33.729	166.153	-5.111	-60.151	-5.105	-60.192	-32.647	-175.341
3.069437	-33.61	165.609	-5.11	-60.391	-5.103	-60.427	-32.508	-175.582
3.081925	-33.512	164.844	-5.114	-60.633	-5.107	-60.668	-32.363	-175.731
3.094413	-33.403	164.204	-5.117	-60.872	-5.11	-60.904	-32.241	-175.968
3.1069	-33.286	163.496	-5.117	-61.115	-5.11	-61.154	-32.136	-176.12
3.119388	-33.207	162.823	-5.119	-61.353	-5.113	-61.391	-32.018	-176.194
3.131875	-33.12	162.282	-5.122	-61.596	-5.118	-61.633	-31.932	-176.311
3.144363	-33.042	161.519	-5.124	-61.837	-5.119	-61.872	-31.831	-176.441
3.15685	-32.962	160.773	-5.126	-62.075	-5.123	-62.116	-31.735	-176.561
3.169338	-32.877	160.113	-5.128	-62.315	-5.125	-62.352	-31.619	-176.753
3.181825	-32.796	159.334	-5.131	-62.56	-5.127	-62.599	-31.511	-177.067
3.194312	-32.69	158.611	-5.132	-62.8	-5.129	-62.846	-31.398	-177.313
3.2068	-32.61	157.709	-5.137	-63.044	-5.132	-63.088	-31.316	-177.841
3.219288	-32.525	157.114	-5.139	-63.281	-5.133	-63.327	-31.207	-178.293
3.231775	-32.426	156.497	-5.141	-63.525	-5.137	-63.568	-31.096	-178.667
3.244263	-32.326	155.829	-5.143	-63.768	-5.136	-63.817	-30.97	-179.07
3.25675	-32.23	155.267	-5.145	-64.012	-5.142	-64.057	-30.844	-179.507
3.269238	-32.15	154.616	-5.149	-64.245	-5.144	-64.298	-30.706	-179.899
3.281725	-32.069	153.87	-5.149	-64.488	-5.145	-64.533	-30.574	179.78
3.294213	-31.988	153.473	-5.154	-64.724	-5.147	-64.778	-30.442	179.636
3.3067	-31.916	152.657	-5.157	-64.963	-5.151	-65.016	-30.289	179.439
3.319187	-31.841	151.933	-5.158	-65.204	-5.153	-65.26	-30.139	179.285
3.331675	-31.745	151.488	-5.16	-65.446	-5.155	-65.504	-29.992	179.062
3.344163	-31.661	150.742	-5.162	-65.69	-5.157	-65.747	-29.853	179.047
3.35665	-31.596	150.241	-5.165	-65.932	-5.159	-65.991	-29.704	179.037
3.369138	-31.513	149.71	-5.168	-66.177	-5.161	-66.23	-29.569	179.023
3.381625	-31.446	149.16	-5.17	-66.417	-5.166	-66.473	-29.431	179.045
3.394113	-31.387	148.551	-5.174	-66.657	-5.168	-66.71	-29.294	179.065
3.4066	-31.326	147.993	-5.176	-66.895	-5.172	-66.953	-29.191	179.023
3.419088	-31.273	147.439	-5.179	-67.136	-5.171	-67.187	-29.077	178.973
3.431575	-31.187	146.859	-5.179	-67.376	-5.175	-67.432	-28.972	178.984
3.444062	-31.122	146.262	-5.184	-67.622	-5.176	-67.676	-28.885	178.986
3.45655	-31.054	145.713	-5.187	-67.858	-5.179	-67.913	-28.788	179.035
3.469038	-30.998	145.241	-5.187	-68.095	-5.181	-68.156	-28.687	178.938
