!Mini-Circuits Laboratory
!S-Parameters
!MODEL: TCM1-43X+
!Run/Lot/Date Code: MHU7710//1246
!DATA FOR: UNIT # 1
!Fixture/SN/Due: TB-654+
!Connection: PORT-1 - pin<3>; PORT-2 - pin<6>; PORT-3- pin<4>
!PORT EXTENSION DONE ON TEST FIXTURE WITH LOSS ON AND MISMATCH ON

!Created: 12-12-2012 at 12:21:19
# MHZ S DB R 50
!Frequency        S11 dB  S11 DEG   S12 dB  S12 DEG   S13 dB  S13 DEG
!                 S21 dB  S21 DEG   S22 dB  S22 DEG   S23 dB  S23 DEG
!                 S31 dB  S31 DEG   S32 dB  S32 DEG   S33 dB  S33 DEG
   1.0000     -1.141257E+001  9.352034E+001 -5.852316E+000  1.545037E+001 -5.950695E+000 -1.648450E+002
              -5.862532E+000  1.542623E+001 -8.422745E+000  1.241079E+002 -9.362292E+000  3.145273E+001
              -5.975991E+000 -1.648198E+002 -9.385248E+000  3.150718E+001 -8.415664E+000  1.251784E+002
   2.0000     -1.384807E+001  6.673586E+001 -5.228771E+000  9.743309E+000 -5.317834E+000 -1.702303E+002
              -5.235914E+000  9.841898E+000 -1.184772E+001  1.068896E+002 -7.766118E+000  2.152565E+001
              -5.334171E+000 -1.701373E+002 -7.783053E+000  2.158155E+001 -1.180793E+001  1.081473E+002
   3.0000     -1.458070E+001  5.082166E+001 -4.993239E+000  7.249255E+000 -5.067057E+000 -1.726828E+002
              -5.000487E+000  7.260192E+000 -1.406485E+001  9.427745E+001 -7.145710E+000  1.651340E+001
              -5.077810E+000 -1.726721E+002 -7.151443E+000  1.650347E+001 -1.402538E+001  9.550472E+001
   4.0000     -1.483997E+001  4.029982E+001 -4.870808E+000  5.707478E+000 -4.936201E+000 -1.742722E+002
              -4.875819E+000  5.728458E+000 -1.565260E+001  8.402715E+001 -6.822309E+000  1.323709E+001
              -4.942996E+000 -1.742387E+002 -6.827467E+000  1.327148E+001 -1.563865E+001  8.532261E+001
   5.0000     -1.496414E+001  3.318990E+001 -4.798916E+000  4.650766E+000 -4.860612E+000 -1.753633E+002
              -4.804099E+000  4.672841E+000 -1.684942E+001  7.545143E+001 -6.638550E+000  1.100744E+001
              -4.871023E+000 -1.753169E+002 -6.644845E+000  1.101368E+001 -1.685923E+001  7.690437E+001
   6.0000     -1.501973E+001  2.798465E+001 -4.755503E+000  3.868601E+000 -4.819551E+000 -1.761576E+002
              -4.758780E+000  3.861561E+000 -1.779162E+001  6.812717E+001 -6.526339E+000  9.368145E+000
              -4.821282E+000 -1.761405E+002 -6.523671E+000  9.400279E+000 -1.781467E+001  6.964578E+001
   7.0000     -1.506306E+001  2.408186E+001 -4.729187E+000  3.251349E+000 -4.788779E+000 -1.767737E+002
              -4.734548E+000  3.246910E+000 -1.850943E+001  6.190820E+001 -6.447376E+000  8.088457E+000
              -4.796701E+000 -1.767628E+002 -6.451756E+000  8.128851E+000 -1.856391E+001  6.358144E+001
   8.0000     -1.510356E+001  2.102419E+001 -4.714897E+000  2.772309E+000 -4.770964E+000 -1.772631E+002
              -4.718179E+000  2.775789E+000 -1.909109E+001  5.658904E+001 -6.396995E+000  7.079589E+000
              -4.776291E+000 -1.772223E+002 -6.401694E+000  7.104776E+000 -1.916858E+001  5.819997E+001
   9.0000     -1.511632E+001  1.871721E+001 -4.705394E+000  2.387979E+000 -4.759481E+000 -1.776630E+002
              -4.708384E+000  2.392508E+000 -1.953319E+001  5.202609E+001 -6.364709E+000  6.276963E+000
              -4.765378E+000 -1.776386E+002 -6.369287E+000  6.294879E+000 -1.963395E+001  5.358829E+001
  10.0000     -1.512671E+001  1.672306E+001 -4.698795E+000  2.054993E+000 -4.752769E+000 -1.779953E+002
              -4.701916E+000  2.078238E+000 -1.989559E+001  4.803930E+001 -6.340302E+000  5.608835E+000
              -4.758390E+000 -1.779855E+002 -6.346741E+000  5.598790E+000 -2.003181E+001  4.943955E+001
  15.0000     -1.517842E+001  1.074940E+001 -4.687558E+000  1.009717E+000 -4.740956E+000 -1.791330E+002
              -4.693816E+000  1.015254E+000 -2.101061E+001  3.426628E+001 -6.297511E+000  3.482558E+000
              -4.748606E+000 -1.791146E+002 -6.299468E+000  3.484986E+000 -2.118739E+001  3.516653E+001
  20.0000     -1.525610E+001  7.809722E+000 -4.692392E+000  4.029799E-001 -4.739047E+000 -1.797982E+002
              -4.696332E+000  4.208321E-001 -2.159595E+001  2.695433E+001 -6.288689E+000  2.386981E+000
              -4.748997E+000 -1.798032E+002 -6.293939E+000  2.360460E+000 -2.184069E+001  2.757673E+001
  25.0000     -1.530505E+001  6.053741E+000 -4.699414E+000  9.012656E-003 -4.745235E+000  1.797307E+002
              -4.703661E+000  2.886355E-002 -2.192394E+001  2.271495E+001 -6.292593E+000  1.711521E+000
              -4.755597E+000  1.797289E+002 -6.298919E+000  1.696657E+000 -2.220160E+001  2.317348E+001
  30.0000     -1.532387E+001  4.956209E+000 -4.706667E+000 -2.870306E-001 -4.754342E+000  1.793661E+002
              -4.711711E+000 -2.801667E-001 -2.209658E+001  2.013465E+001 -6.304007E+000  1.280041E+000
              -4.764303E+000  1.793593E+002 -6.308436E+000  1.258865E+000 -2.238794E+001  2.042799E+001
  35.0000     -1.533830E+001  4.288110E+000 -4.713195E+000 -5.271128E-001 -4.758433E+000  1.790433E+002
              -4.715685E+000 -5.220293E-001 -2.219467E+001  1.854239E+001 -6.308446E+000  9.506887E-001
              -4.770149E+000  1.790531E+002 -6.317238E+000  9.478910E-001 -2.250275E+001  1.891175E+001
  40.0000     -1.534848E+001  3.819332E+000 -4.714042E+000 -7.293633E-001 -4.764179E+000  1.787731E+002
              -4.717923E+000 -7.429340E-001 -2.225871E+001  1.753542E+001 -6.316105E+000  7.173010E-001
              -4.774661E+000  1.787749E+002 -6.320483E+000  7.135485E-001 -2.253458E+001  1.791244E+001
  45.0000     -1.535723E+001  3.410756E+000 -4.712980E+000 -9.096144E-001 -4.769073E+000  1.785224E+002
              -4.717372E+000 -9.150648E-001 -2.229001E+001  1.683298E+001 -6.321807E+000  5.332074E-001
              -4.778191E+000  1.785357E+002 -6.323493E+000  5.278747E-001 -2.254535E+001  1.720421E+001
  50.0000     -1.535312E+001  3.103960E+000 -4.711287E+000 -1.092318E+000 -4.775870E+000  1.782796E+002
              -4.718736E+000 -1.093871E+000 -2.229827E+001  1.637054E+001 -6.329250E+000  3.656304E-001
              -4.782835E+000  1.782910E+002 -6.325535E+000  3.728496E-001 -2.251530E+001  1.683560E+001
  55.0000     -1.534983E+001  2.840311E+000 -4.711678E+000 -1.257222E+000 -4.779284E+000  1.780551E+002
              -4.718266E+000 -1.249436E+000 -2.230052E+001  1.597276E+001 -6.330921E+000  2.394175E-001
              -4.784618E+000  1.780800E+002 -6.328517E+000  2.503808E-001 -2.251637E+001  1.660548E+001
  60.0000     -1.534152E+001  2.679330E+000 -4.712004E+000 -1.413944E+000 -4.781755E+000  1.778379E+002
              -4.718975E+000 -1.421311E+000 -2.227188E+001  1.576256E+001 -6.332460E+000  1.285521E-001
              -4.786166E+000  1.778565E+002 -6.328396E+000  1.435754E-001 -2.250256E+001  1.638951E+001
  65.0000     -1.533217E+001  2.535407E+000 -4.712406E+000 -1.569636E+000 -4.783996E+000  1.776253E+002
              -4.718483E+000 -1.582240E+000 -2.223690E+001  1.555558E+001 -6.332154E+000  2.283840E-002
              -4.786107E+000  1.776361E+002 -6.328418E+000  4.844014E-002 -2.248618E+001  1.624864E+001
  70.0000     -1.531484E+001  2.361387E+000 -4.714744E+000 -1.720519E+000 -4.786837E+000  1.774295E+002
              -4.719769E+000 -1.730914E+000 -2.219189E+001  1.543103E+001 -6.333898E+000 -5.192551E-002
              -4.787916E+000  1.774386E+002 -6.331378E+000 -4.714693E-002 -2.246759E+001  1.617915E+001
  75.0000     -1.529353E+001  2.220399E+000 -4.716905E+000 -1.876173E+000 -4.787352E+000  1.772239E+002
              -4.722684E+000 -1.878129E+000 -2.214607E+001  1.533441E+001 -6.333607E+000 -1.390671E-001
              -4.791858E+000  1.772386E+002 -6.331892E+000 -1.281435E-001 -2.245173E+001  1.615906E+001
  80.0000     -1.527513E+001  2.097770E+000 -4.719164E+000 -2.027756E+000 -4.787904E+000  1.770308E+002
              -4.723829E+000 -2.029686E+000 -2.208545E+001  1.530394E+001 -6.333715E+000 -2.181580E-001
              -4.792622E+000  1.770313E+002 -6.332670E+000 -2.031777E-001 -2.242673E+001  1.614257E+001
  85.0000     -1.524828E+001  1.942036E+000 -4.719920E+000 -2.162192E+000 -4.789265E+000  1.768261E+002
              -4.727077E+000 -2.173258E+000 -2.201786E+001  1.526292E+001 -6.334123E+000 -2.903956E-001
              -4.796320E+000  1.768398E+002 -6.331714E+000 -2.721559E-001 -2.239037E+001  1.614143E+001
  90.0000     -1.523219E+001  1.802714E+000 -4.721441E+000 -2.300344E+000 -4.790832E+000  1.766259E+002
              -4.726592E+000 -2.306356E+000 -2.196486E+001  1.533334E+001 -6.334497E+000 -3.739130E-001
              -4.796646E+000  1.766374E+002 -6.331807E+000 -3.470791E-001 -2.235643E+001  1.627117E+001
  95.0000     -1.521947E+001  1.636797E+000 -4.720661E+000 -2.442806E+000 -4.791705E+000  1.764205E+002
              -4.725111E+000 -2.431668E+000 -2.191213E+001  1.546510E+001 -6.332679E+000 -4.631849E-001
              -4.797538E+000  1.764497E+002 -6.331158E+000 -4.458857E-001 -2.232155E+001  1.635133E+001
 100.0000     -1.520089E+001  1.470961E+000 -4.720309E+000 -2.567280E+000 -4.793789E+000  1.762216E+002
              -4.726757E+000 -2.561461E+000 -2.185513E+001  1.560438E+001 -6.333732E+000 -5.423393E-001
              -4.798433E+000  1.762624E+002 -6.331284E+000 -5.285537E-001 -2.226748E+001  1.649407E+001
 105.0000     -1.518510E+001  1.374468E+000 -4.719695E+000 -2.695175E+000 -4.795275E+000  1.760370E+002
              -4.725832E+000 -2.695880E+000 -2.179994E+001  1.567142E+001 -6.333639E+000 -6.081499E-001
              -4.799915E+000  1.760661E+002 -6.332386E+000 -5.870532E-001 -2.222270E+001  1.652174E+001
 110.0000     -1.517162E+001  1.209517E+000 -4.717767E+000 -2.830538E+000 -4.797337E+000  1.758521E+002
              -4.723943E+000 -2.818926E+000 -2.175131E+001  1.589235E+001 -6.335421E+000 -6.691601E-001
              -4.802341E+000  1.758888E+002 -6.334465E+000 -6.559992E-001 -2.217730E+001  1.656911E+001
 115.0000     -1.515934E+001  1.089871E+000 -4.714983E+000 -2.953828E+000 -4.799140E+000  1.756683E+002
              -4.720464E+000 -2.945613E+000 -2.168336E+001  1.589436E+001 -6.339383E+000 -7.263005E-001
              -4.802776E+000  1.756953E+002 -6.336851E+000 -7.126694E-001 -2.211448E+001  1.656475E+001
 120.0000     -1.514962E+001  9.935842E-001 -4.711085E+000 -3.083268E+000 -4.799977E+000  1.754713E+002
              -4.716862E+000 -3.077176E+000 -2.163794E+001  1.597082E+001 -6.341293E+000 -7.818519E-001
              -4.803490E+000  1.755017E+002 -6.338809E+000 -7.687069E-001 -2.205617E+001  1.656718E+001
 125.0000     -1.514773E+001  8.965744E-001 -4.707940E+000 -3.208285E+000 -4.801107E+000  1.752899E+002
              -4.713141E+000 -3.205677E+000 -2.159590E+001  1.605519E+001 -6.343982E+000 -8.300707E-001
              -4.803804E+000  1.753181E+002 -6.339760E+000 -8.148088E-001 -2.198824E+001  1.658039E+001
 130.0000     -1.514126E+001  7.702244E-001 -4.705644E+000 -3.339459E+000 -4.801284E+000  1.751154E+002
              -4.711165E+000 -3.340726E+000 -2.155870E+001  1.609059E+001 -6.343764E+000 -8.804678E-001
              -4.805435E+000  1.751328E+002 -6.340791E+000 -8.571640E-001 -2.194852E+001  1.672765E+001
 135.0000     -1.513555E+001  6.569735E-001 -4.702568E+000 -3.472611E+000 -4.801482E+000  1.749267E+002
              -4.709016E+000 -3.477494E+000 -2.154559E+001  1.627213E+001 -6.340329E+000 -9.293814E-001
              -4.806478E+000  1.749449E+002 -6.336911E+000 -8.996039E-001 -2.191142E+001  1.686543E+001
 140.0000     -1.513263E+001  5.192615E-001 -4.700585E+000 -3.598186E+000 -4.800407E+000  1.747449E+002
              -4.706729E+000 -3.609250E+000 -2.153192E+001  1.635352E+001 -6.335436E+000 -9.673569E-001
              -4.805789E+000  1.747649E+002 -6.331003E+000 -9.265146E-001 -2.188631E+001  1.699266E+001
 145.0000     -1.512981E+001  4.003103E-001 -4.698073E+000 -3.738788E+000 -4.799725E+000  1.745645E+002
              -4.704172E+000 -3.742913E+000 -2.151167E+001  1.648968E+001 -6.331151E+000 -1.009645E+000
              -4.804739E+000  1.745807E+002 -6.326296E+000 -9.712701E-001 -2.186760E+001  1.720421E+001
 150.0000     -1.511960E+001  2.688737E-001 -4.696703E+000 -3.875503E+000 -4.800091E+000  1.743843E+002
              -4.703183E+000 -3.871945E+000 -2.149255E+001  1.663334E+001 -6.329908E+000 -1.045916E+000
              -4.805675E+000  1.744086E+002 -6.324179E+000 -1.014039E+000 -2.182848E+001  1.740222E+001
 155.0000     -1.511196E+001  1.647481E-001 -4.695118E+000 -4.008200E+000 -4.801366E+000  1.742062E+002
              -4.700469E+000 -4.018132E+000 -2.143676E+001  1.677878E+001 -6.332244E+000 -1.102422E+000
              -4.807655E+000  1.742225E+002 -6.325870E+000 -1.057305E+000 -2.178322E+001  1.773621E+001
 160.0000     -1.508818E+001  5.279534E-002 -4.694393E+000 -4.144641E+000 -4.801456E+000  1.740336E+002
              -4.698930E+000 -4.147733E+000 -2.135570E+001  1.694471E+001 -6.333519E+000 -1.151327E+000
              -4.807514E+000  1.740528E+002 -6.330293E+000 -1.116568E+000 -2.172377E+001  1.790138E+001
 165.0000     -1.506804E+001 -4.117103E-002 -4.692837E+000 -4.276180E+000 -4.800029E+000  1.738494E+002
              -4.697496E+000 -4.282649E+000 -2.126913E+001  1.708729E+001 -6.335274E+000 -1.236817E+000
              -4.807657E+000  1.738731E+002 -6.332287E+000 -1.176575E+000 -2.166183E+001  1.824107E+001
 170.0000     -1.504297E+001 -1.638197E-001 -4.692510E+000 -4.416584E+000 -4.800105E+000  1.736797E+002
              -4.695118E+000 -4.414234E+000 -2.117621E+001  1.733887E+001 -6.340266E+000 -1.283750E+000
              -4.806200E+000  1.737015E+002 -6.337897E+000 -1.257610E+000 -2.157512E+001  1.848744E+001
 175.0000     -1.501706E+001 -2.529161E-001 -4.690925E+000 -4.540339E+000 -4.800896E+000  1.734967E+002
              -4.693956E+000 -4.549284E+000 -2.109543E+001  1.747931E+001 -6.344110E+000 -1.353731E+000
              -4.807281E+000  1.735224E+002 -6.339465E+000 -1.300639E+000 -2.151752E+001  1.880373E+001
 180.0000     -1.499720E+001 -3.676969E-001 -4.689834E+000 -4.683361E+000 -4.801175E+000  1.733221E+002
              -4.692939E+000 -4.679618E+000 -2.102384E+001  1.765643E+001 -6.345363E+000 -1.408404E+000
              -4.809185E+000  1.733486E+002 -6.345023E+000 -1.359336E+000 -2.147699E+001  1.912960E+001
 185.0000     -1.497907E+001 -4.476151E-001 -4.688767E+000 -4.811712E+000 -4.802645E+000  1.731423E+002
              -4.692657E+000 -4.815019E+000 -2.096303E+001  1.784601E+001 -6.347245E+000 -1.445813E+000
              -4.811368E+000  1.731681E+002 -6.347115E+000 -1.400514E+000 -2.144895E+001  1.937340E+001
 190.0000     -1.496237E+001 -5.494699E-001 -4.686819E+000 -4.945903E+000 -4.801728E+000  1.729503E+002
              -4.690544E+000 -4.950278E+000 -2.090719E+001  1.797387E+001 -6.346103E+000 -1.489576E+000
              -4.812003E+000  1.729813E+002 -6.347133E+000 -1.435299E+000 -2.142945E+001  1.956912E+001
 195.0000     -1.494658E+001 -6.890984E-001 -4.683302E+000 -5.078972E+000 -4.800943E+000  1.727706E+002
              -4.687932E+000 -5.075015E+000 -2.086308E+001  1.811271E+001 -6.344591E+000 -1.530577E+000
              -4.809601E+000  1.727932E+002 -6.346145E+000 -1.489749E+000 -2.139083E+001  1.971932E+001
 200.0000     -1.493106E+001 -8.190720E-001 -4.682104E+000 -5.210251E+000 -4.799150E+000  1.725768E+002
              -4.685406E+000 -5.205654E+000 -2.081137E+001  1.822207E+001 -6.342341E+000 -1.564368E+000
              -4.808811E+000  1.726001E+002 -6.344430E+000 -1.520460E+000 -2.137337E+001  1.980643E+001
 205.0000     -1.491134E+001 -9.474698E-001 -4.678549E+000 -5.332926E+000 -4.799564E+000  1.723815E+002
              -4.683335E+000 -5.335803E+000 -2.077460E+001  1.829397E+001 -6.342985E+000 -1.598044E+000
              -4.807938E+000  1.724124E+002 -6.341774E+000 -1.551959E+000 -2.132292E+001  1.990228E+001
 210.0000     -1.490127E+001 -1.071993E+000 -4.677126E+000 -5.460336E+000 -4.799204E+000  1.721967E+002
              -4.680411E+000 -5.469495E+000 -2.073163E+001  1.845053E+001 -6.341846E+000 -1.637014E+000
              -4.806618E+000  1.722259E+002 -6.341991E+000 -1.588587E+000 -2.130719E+001  2.001858E+001
 215.0000     -1.489220E+001 -1.185559E+000 -4.673652E+000 -5.586441E+000 -4.800640E+000  1.720236E+002
              -4.677238E+000 -5.594787E+000 -2.069632E+001  1.859727E+001 -6.343382E+000 -1.675641E+000
              -4.808216E+000  1.720552E+002 -6.345613E+000 -1.622514E+000 -2.126948E+001  2.020325E+001
 220.0000     -1.487596E+001 -1.325940E+000 -4.668948E+000 -5.707733E+000 -4.801444E+000  1.718444E+002
              -4.674228E+000 -5.716352E+000 -2.065644E+001  1.875238E+001 -6.344938E+000 -1.725037E+000
              -4.810979E+000  1.718767E+002 -6.345305E+000 -1.661250E+000 -2.123262E+001  2.027012E+001
 225.0000     -1.486633E+001 -1.461846E+000 -4.666054E+000 -5.842884E+000 -4.802543E+000  1.716588E+002
              -4.669687E+000 -5.858762E+000 -2.061465E+001  1.888325E+001 -6.345907E+000 -1.774440E+000
              -4.810865E+000  1.716818E+002 -6.347686E+000 -1.712701E+000 -2.119307E+001  2.035390E+001
 230.0000     -1.485466E+001 -1.596061E+000 -4.662414E+000 -5.967929E+000 -4.802834E+000  1.714717E+002
              -4.665922E+000 -5.982436E+000 -2.057994E+001  1.899911E+001 -6.347721E+000 -1.818952E+000
              -4.810925E+000  1.715008E+002 -6.347364E+000 -1.764071E+000 -2.112726E+001  2.042489E+001
 235.0000     -1.483863E+001 -1.792789E+000 -4.658364E+000 -6.099154E+000 -4.801481E+000  1.712883E+002
              -4.661602E+000 -6.110306E+000 -2.053969E+001  1.912248E+001 -6.346793E+000 -1.876767E+000
              -4.810133E+000  1.713152E+002 -6.347258E+000 -1.820749E+000 -2.108214E+001  2.040306E+001
 240.0000     -1.483112E+001 -1.929912E+000 -4.654267E+000 -6.225779E+000 -4.801189E+000  1.711038E+002
              -4.656488E+000 -6.240724E+000 -2.050511E+001  1.922347E+001 -6.346455E+000 -1.934736E+000
              -4.807688E+000  1.711321E+002 -6.346611E+000 -1.871778E+000 -2.102502E+001  2.054881E+001
 245.0000     -1.481500E+001 -2.064998E+000 -4.648603E+000 -6.352878E+000 -4.801044E+000  1.709253E+002
              -4.653070E+000 -6.372040E+000 -2.047056E+001  1.922419E+001 -6.347151E+000 -1.985881E+000
              -4.808303E+000  1.709513E+002 -6.343674E+000 -1.919961E+000 -2.096963E+001  2.065287E+001
 250.0000     -1.480768E+001 -2.212275E+000 -4.645546E+000 -6.489288E+000 -4.801684E+000  1.707529E+002
              -4.647907E+000 -6.507363E+000 -2.042216E+001  1.935262E+001 -6.348927E+000 -2.024380E+000
              -4.808468E+000  1.707741E+002 -6.346024E+000 -1.958794E+000 -2.090205E+001  2.076389E+001
 255.0000     -1.479842E+001 -2.369413E+000 -4.642204E+000 -6.623054E+000 -4.802417E+000  1.705797E+002
              -4.644458E+000 -6.636735E+000 -2.038752E+001  1.938896E+001 -6.349069E+000 -2.075773E+000
              -4.808600E+000  1.706067E+002 -6.348548E+000 -1.992907E+000 -2.086511E+001  2.099744E+001
 260.0000     -1.479197E+001 -2.495333E+000 -4.638217E+000 -6.766969E+000 -4.801922E+000  1.704027E+002
              -4.640032E+000 -6.776706E+000 -2.035192E+001  1.946295E+001 -6.350484E+000 -2.116553E+000
              -4.809464E+000  1.704336E+002 -6.351122E+000 -2.038671E+000 -2.082035E+001  2.118146E+001
 265.0000     -1.478371E+001 -2.633362E+000 -4.635592E+000 -6.909419E+000 -4.802037E+000  1.702266E+002
              -4.635646E+000 -6.920028E+000 -2.030749E+001  1.949677E+001 -6.350169E+000 -2.159756E+000
              -4.810007E+000  1.702523E+002 -6.353436E+000 -2.078029E+000 -2.077400E+001  2.140990E+001
 270.0000     -1.476935E+001 -2.827916E+000 -4.632314E+000 -7.044538E+000 -4.801325E+000  1.700489E+002
              -4.632249E+000 -7.052488E+000 -2.025572E+001  1.949806E+001 -6.350295E+000 -2.205863E+000
              -4.808065E+000  1.700739E+002 -6.354187E+000 -2.117852E+000 -2.072922E+001  2.159198E+001
 275.0000     -1.474428E+001 -2.975513E+000 -4.628604E+000 -7.191365E+000 -4.799114E+000  1.698654E+002
